T0904 000:015.279   SEGGER J-Link V6.84a Log File
T0904 000:015.458   DLL Compiled: Sep  7 2020 17:26:08
T0904 000:015.494   Logging started @ 2025-12-11 03:03
T0904 000:015.528 - 15.545ms
T0904 000:015.569 JLINK_SetWarnOutHandler(...)
T0904 000:015.605 - 0.052ms
T0904 000:015.641 JLINK_OpenEx(...)
T0904 000:019.349   Firmware: J-Link V9 compiled Dec  8 2023 20:16:22
T0904 000:019.626   Decompressing FW timestamp took 182 us
T0904 000:025.517   Hardware: V9.70
T0904 000:025.620   S/N: 602718625
T0904 000:025.691   OEM: SEGGER
T0904 000:025.762   Feature(s): GDB, RDI, FlashBP, FlashDL, JFlash
T0904 000:026.838   TELNET listener socket opened on port 19021
T0904 000:026.986   WEBSRV Starting webserver
T0904 000:027.190   WEBSRV Webserver running on local port 19080
T0904 000:027.246 - 11.622ms returns "O.K."
T0904 000:027.293 JLINK_GetEmuCaps()
T0904 000:027.329 - 0.052ms returns 0xB9FF7BBF
T0904 000:027.371 JLINK_TIF_GetAvailable(...)
T0904 000:027.546 - 0.194ms
T0904 000:027.600 JLINK_SetErrorOutHandler(...)
T0904 000:027.634 - 0.050ms
T0904 000:027.683 JLINK_ExecCommand("ProjectFile = "E:\多谱采集卡资料\4-呼吸demo\Keil工程烧录\SKY32B750-RC6011C-AIP-4T4R-PointCloud\RADAR_V10\proj\V1.1.2_chirpmean_44+86\JLinkSettings.ini"", ...). 
T0904 000:039.560   Ref file found at: E:\DKeil_MDK\ARM\Segger\JLinkDevices.ref
T0904 000:039.928   XML referenced by ref file: C:\Program Files (x86)\SEGGER\JLink\JLinkDevices.xml
T0904 000:041.032   C:\Program Files (x86)\SEGGER\JLink\JLinkDevices.xml evaluated successfully.
T0904 000:168.149   Device "ARM9" selected.
T0904 000:169.050 - 141.391ms returns 0x00
T0904 000:171.804 JLINK_ExecCommand("Device = ARMCM7_DP", ...). 
T0904 000:173.995   Device "CORTEX-M7" selected.
T0904 000:174.732 - 2.894ms returns 0x00
T0904 000:174.786 JLINK_GetHardwareVersion()
T0904 000:174.829 - 0.064ms returns 97000
T0904 000:174.877 JLINK_GetDLLVersion()
T0904 000:174.911 - 0.050ms returns 68401
T0904 000:174.947 JLINK_GetOEMString(...)
T0904 000:174.982 JLINK_GetFirmwareString(...)
T0904 000:175.016 - 0.050ms
T0904 000:185.386 JLINK_GetDLLVersion()
T0904 000:185.458 - 0.089ms returns 68401
T0904 000:185.495 JLINK_GetCompileDateTime()
T0904 000:185.529 - 0.050ms
T0904 000:189.132 JLINK_GetFirmwareString(...)
T0904 000:189.190 - 0.075ms
T0904 000:191.964 JLINK_GetHardwareVersion()
T0904 000:192.022 - 0.077ms returns 97000
T0904 000:194.588 JLINK_GetSN()
T0904 000:194.651 - 0.079ms returns 602718625
T0904 000:197.179 JLINK_GetOEMString(...)
T0904 000:203.344 JLINK_TIF_Select(JLINKARM_TIF_SWD)
T0904 000:204.012 - 0.702ms returns 0x00
T0904 000:204.074 JLINK_HasError()
T0904 000:204.166 JLINK_SetSpeed(5000)
T0904 000:204.273 - 0.142ms
T0904 000:204.334 JLINK_GetId()
T0904 000:259.761   Found SW-DP with ID 0x0BD11477
T0904 000:417.336   Failed to power up DAP
T0904 000:573.358   Found SW-DP with ID 0x0BD11477
T0904 000:578.712   DPIDR: 0x0BD11477
T0904 000:581.547   Scanning AP map to find all available APs
T0904 000:584.789   AP[1]: Stopped AP scan as end of AP map has been reached
T0904 000:587.422   AP[0]: AHB-AP (IDR: 0x04770041)
T0904 000:590.126   Iterating through AP map to find AHB-AP to use
T0904 000:594.399   AP[0]: Core found
T0904 000:597.952   AP[0]: AHB-AP ROM base: 0xE00FD000
T0904 000:601.309   CPUID register: 0x411FC272. Implementer code: 0x41 (ARM)
T0904 000:604.563   Found Cortex-M7 r1p2, Little endian.
T0904 000:705.662   -- Max. mem block: 0x00010C20
T0904 000:706.138   CPU_ReadMem(4 bytes @ 0xE000EDF0)
T0904 000:706.477   CPU_ReadMem(4 bytes @ 0xE0002000)
T0904 000:711.052   FPUnit: 8 code (BP) slots and 0 literal slots
T0904 000:711.128   CPU_ReadMem(4 bytes @ 0xE000EDFC)
T0904 000:711.479   CPU_ReadMem(4 bytes @ 0xE0001000)
T0904 000:711.854   CPU_WriteMem(4 bytes @ 0xE0001000)
T0904 000:712.208   CPU_ReadMem(4 bytes @ 0xE000ED88)
T0904 000:712.505   CPU_WriteMem(4 bytes @ 0xE000ED88)
T0904 000:712.809   CPU_ReadMem(4 bytes @ 0xE000ED88)
T0904 000:713.118   CPU_WriteMem(4 bytes @ 0xE000ED88)
T0904 000:717.358   CoreSight components:
T0904 000:720.111   ROMTbl[0] @ E00FD000
T0904 000:720.183   CPU_ReadMem(64 bytes @ 0xE00FD000)
T0904 000:720.704   CPU_ReadMem(32 bytes @ 0xE00FEFE0)
T0904 000:723.828   ROMTbl[0][0]: E00FE000, CID: B105100D, PID: 000BB4C8 ROM Table
T0904 000:726.428   ROMTbl[1] @ E00FE000
T0904 000:726.498   CPU_ReadMem(64 bytes @ 0xE00FE000)
T0904 000:727.027   CPU_ReadMem(32 bytes @ 0xE00FFFE0)
T0904 000:730.240   ROMTbl[1][0]: E00FF000, CID: B105100D, PID: 000BB4C7 ROM Table
T0904 000:752.303   ROMTbl[2] @ E00FF000
T0904 000:752.398   CPU_ReadMem(64 bytes @ 0xE00FF000)
T0904 000:752.950   CPU_ReadMem(32 bytes @ 0xE000EFE0)
T0904 000:756.866   ROMTbl[2][0]: E000E000, CID: B105E00D, PID: 000BB00C SCS-M7
T0904 000:756.965   CPU_ReadMem(32 bytes @ 0xE0001FE0)
T0904 000:760.008   ROMTbl[2][1]: E0001000, CID: B105E00D, PID: 000BB002 DWT
T0904 000:760.080   CPU_ReadMem(32 bytes @ 0xE0002FE0)
T0904 000:763.251   ROMTbl[2][2]: E0002000, CID: B105E00D, PID: 000BB00E FPB-M7
T0904 000:763.322   CPU_ReadMem(32 bytes @ 0xE0042FE0)
T0904 000:766.353   ROMTbl[1][2]: E0042000, CID: B105900D, PID: 004BB906 CTI
T0904 000:766.426   CPU_ReadMem(32 bytes @ 0xE0040FE0)
T0904 000:769.340   ROMTbl[0][1]: E0040000, CID: B105900D, PID: 000BB9A9 TPIU-M7
T0904 000:769.422   CPU_ReadMem(4 bytes @ 0xE000ED78)
T0904 000:772.704   Cache: Separate I- and D-cache.
T0904 000:772.777   CPU_WriteMem(4 bytes @ 0xE000ED84)
T0904 000:773.111   CPU_ReadMem(4 bytes @ 0xE000ED80)
T0904 000:776.599   I-Cache L1: 16 KB, 256 Sets, 32 Bytes/Line, 2-Way
T0904 000:776.672   CPU_WriteMem(4 bytes @ 0xE000ED84)
T0904 000:776.972   CPU_ReadMem(4 bytes @ 0xE000ED80)
T0904 000:780.809   D-Cache L1: 8 KB, 64 Sets, 32 Bytes/Line, 4-Way
T0904 000:781.207 - 576.906ms returns 0x0BD11477
T0904 000:781.336 JLINK_GetDLLVersion()
T0904 000:781.371 - 0.052ms returns 68401
T0904 000:781.407 JLINK_CORE_GetFound()
T0904 000:781.441 - 0.050ms returns 0xE0100FF
T0904 000:781.492 JLINK_GetDebugInfo(0x100 = JLINKARM_ROM_TABLE_ADDR_INDEX)
T0904 000:781.528   Value=0xE00FD000
T0904 000:781.577 - 0.102ms returns 0
T0904 000:784.286 JLINK_GetDebugInfo(0x100 = JLINKARM_ROM_TABLE_ADDR_INDEX)
T0904 000:784.340   Value=0xE00FD000
T0904 000:784.392 - 0.122ms returns 0
T0904 000:784.427 JLINK_GetDebugInfo(0x101 = JLINKARM_DEBUG_INFO_ETM_ADDR_INDEX)
T0904 000:784.461   Value=0x00000000
T0904 000:784.511 - 0.100ms returns 0
T0904 000:784.547 JLINK_ReadMemEx(0xE0041FF0, 0x10 Bytes, Flags = 0x02000004)
T0904 000:794.276   CPU_ReadMem(16 bytes @ 0xE0041FF0)
T0904 000:794.663   Data:  00 00 00 00 00 00 00 00 00 00 00 00 00 00 00 00
T0904 000:794.755 - 10.232ms returns 16 (0x10)
T0904 000:794.806 JLINK_GetDebugInfo(0x102 = JLINKARM_DEBUG_INFO_MTB_ADDR_INDEX)
T0904 000:794.841   Value=0x00000000
T0904 000:794.891 - 0.101ms returns 0
T0904 000:794.926 JLINK_GetDebugInfo(0x103 = JLINKARM_DEBUG_INFO_TPIU_ADDR_INDEX)
T0904 000:794.960   Value=0xE0040000
T0904 000:795.010 - 0.100ms returns 0
T0904 000:795.045 JLINK_GetDebugInfo(0x104 = JLINKARM_DEBUG_INFO_ITM_ADDR_INDEX)
T0904 000:795.086   Value=0xE0000000
T0904 000:795.136 - 0.107ms returns 0
T0904 000:795.171 JLINK_GetDebugInfo(0x105 = JLINKARM_DEBUG_INFO_DWT_ADDR_INDEX)
T0904 000:795.204   Value=0xE0001000
T0904 000:795.253 - 0.099ms returns 0
T0904 000:795.288 JLINK_GetDebugInfo(0x106 = JLINKARM_DEBUG_INFO_FPB_ADDR_INDEX)
T0904 000:795.322   Value=0xE0002000
T0904 000:795.372 - 0.100ms returns 0
T0904 000:795.407 JLINK_GetDebugInfo(0x107 = JLINKARM_DEBUG_INFO_NVIC_ADDR_INDEX)
T0904 000:795.440   Value=0xE000E000
T0904 000:795.489 - 0.099ms returns 0
T0904 000:795.524 JLINK_GetDebugInfo(0x10C = JLINKARM_DEBUG_INFO_DBG_ADDR_INDEX)
T0904 000:795.558   Value=0xE000EDF0
T0904 000:795.607 - 0.099ms returns 0
T0904 000:795.642 JLINK_GetDebugInfo(0x01 = Unknown)
T0904 000:795.686   Value=0x00000001
T0904 000:795.736 - 0.110ms returns 0
T0904 000:795.771 JLINK_ReadMemU32(0xE000ED00, 0x1 Items)
T0904 000:795.812   CPU_ReadMem(4 bytes @ 0xE000ED00)
T0904 000:796.099   Data:  72 C2 1F 41
T0904 000:796.159   Debug reg: CPUID
T0904 000:796.284 - 0.560ms returns 1 (0x1)
T0904 000:796.356 JLINK_GetDebugInfo(0x10F = JLINKARM_DEBUG_INFO_HAS_CORTEX_M_SECURITY_EXT_INDEX)
T0904 000:796.390   Value=0x00000000
T0904 000:796.440 - 0.101ms returns 0
T0904 000:796.476 JLINK_HasError()
T0904 000:796.512 JLINK_SetResetType(JLINKARM_CM3_RESET_TYPE_CORE)
T0904 000:796.546 - 0.051ms returns JLINKARM_CM3_RESET_TYPE_NORMAL
T0904 000:796.581 JLINK_Reset()
T0904 000:796.645   CPU is running
T0904 000:796.697   CPU_WriteMem(4 bytes @ 0xE000EDF0)
T0904 000:796.972   CPU is running
T0904 000:797.030   CPU_WriteMem(4 bytes @ 0xE000EDFC)
T0904 000:799.903   Reset: Halt core after reset via DEMCR.VC_CORERESET.
T0904 000:803.720   Reset: Reset device via AIRCR.VECTRESET.
T0904 000:803.791   CPU is running
T0904 000:803.844   CPU_WriteMem(4 bytes @ 0xE000ED0C)
T0904 000:804.136   CPU_ReadMem(4 bytes @ 0xE000EDF0)
T0904 000:804.469   CPU_ReadMem(4 bytes @ 0xE000EDF0)
T0904 000:804.744   CPU is running
T0904 000:804.799   CPU_WriteMem(4 bytes @ 0xE000EDF0)
T0904 000:805.063   CPU is running
T0904 000:805.118   CPU_WriteMem(4 bytes @ 0xE000EDFC)
T0904 000:810.902   CPU_ReadMem(4 bytes @ 0xE000EDF0)
T0904 000:813.270   CPU_WriteMem(4 bytes @ 0xE0002000)
T0904 000:813.615   CPU_ReadMem(4 bytes @ 0xE000EDFC)
T0904 000:813.888   CPU_ReadMem(4 bytes @ 0xE0001000)
T0904 000:814.172 - 17.655ms
T0904 000:814.339 JLINK_Halt()
T0904 000:814.399 - 0.077ms returns 0x00
T0904 000:814.437 JLINK_ReadMemU32(0xE000EDF0, 0x1 Items)
T0904 000:814.481   CPU_ReadMem(4 bytes @ 0xE000EDF0)
T0904 000:814.745   Data:  03 00 03 00
T0904 000:814.805   Debug reg: DHCSR
T0904 000:814.856 - 0.435ms returns 1 (0x1)
T0904 000:814.906 JLINK_WriteU32_64(0xE000EDF0, 0xA05F0003)
T0904 000:814.941   Debug reg: DHCSR
T0904 000:815.007   CPU_WriteMem(4 bytes @ 0xE000EDF0)
T0904 000:815.308 - 0.435ms returns 0 (0x00000000)
T0904 000:815.364 JLINK_WriteU32_64(0xE000EDFC, 0x01000000)
T0904 000:815.409   Debug reg: DEMCR
T0904 000:815.470   CPU_WriteMem(4 bytes @ 0xE000EDFC)
T0904 000:815.752 - 0.433ms returns 0 (0x00000000)
T0904 000:826.999 JLINK_GetHWStatus(...)
T0904 000:827.189 - 0.232ms returns 0
T0904 000:834.476 JLINK_GetNumBPUnits(Type = 0xFFFFFF00)
T0904 000:834.529 - 0.070ms returns 0x08
T0904 000:834.566 JLINK_GetNumBPUnits(Type = 0xF0)
T0904 000:834.600 - 0.051ms returns 0x2000
T0904 000:834.635 JLINK_GetNumWPUnits()
T0904 000:834.669 - 0.050ms returns 4
T0904 000:842.537 JLINK_GetSpeed()
T0904 000:842.589 - 0.078ms returns 4000
T0904 000:849.498 JLINK_ReadMemU32(0xE000E004, 0x1 Items)
T0904 000:849.567   CPU_ReadMem(4 bytes @ 0xE000E004)
T0904 000:849.869   Data:  01 00 00 00
T0904 000:849.938 - 0.457ms returns 1 (0x1)
T0904 000:849.978 JLINK_ReadMemU32(0xE000E004, 0x1 Items)
T0904 000:850.018   CPU_ReadMem(4 bytes @ 0xE000E004)
T0904 000:850.324   Data:  01 00 00 00
T0904 000:850.390 - 0.428ms returns 1 (0x1)
T0904 000:850.427 JLINK_WriteMemEx(0xE0001000, 0x0000001C Bytes, Flags = 0x02000004)
T0904 000:850.461   Data:  01 00 00 00 00 00 00 00 00 00 00 00 00 00 00 00 ...
T0904 000:850.783   CPU_WriteMem(28 bytes @ 0xE0001000)
T0904 000:851.154 - 0.747ms returns 0x1C
T0904 000:851.200 JLINK_Halt()
T0904 000:851.234 - 0.051ms returns 0x00
T0904 000:851.269 JLINK_IsHalted()
T0904 000:851.305 - 0.052ms returns TRUE
T0904 000:870.028 JLINK_WriteMem(0x20000000, 0x14C Bytes, ...)
T0904 000:870.099   Data:  00 BE 0A E0 0D 78 2D 06 68 40 08 24 40 00 00 D3 ...
T0904 000:870.425   CPU_WriteMem(332 bytes @ 0x20000000)
T0904 000:871.875 - 1.888ms returns 0x14C
T0904 000:871.980 JLINK_HasError()
T0904 000:872.020 JLINK_WriteReg(R0, 0x00000000)
T0904 000:872.078 - 0.076ms returns 0
T0904 000:872.115 JLINK_WriteReg(R1, 0x00B71B00)
T0904 000:872.150 - 0.052ms returns 0
T0904 000:872.185 JLINK_WriteReg(R2, 0x00000001)
T0904 000:872.219 - 0.050ms returns 0
T0904 000:872.254 JLINK_WriteReg(R3, 0x00000000)
T0904 000:872.288 - 0.050ms returns 0
T0904 000:872.323 JLINK_WriteReg(R4, 0x00000000)
T0904 000:872.357 - 0.050ms returns 0
T0904 000:872.396 JLINK_WriteReg(R5, 0x00000000)
T0904 000:872.432 - 0.052ms returns 0
T0904 000:872.467 JLINK_WriteReg(R6, 0x00000000)
T0904 000:872.501 - 0.050ms returns 0
T0904 000:872.536 JLINK_WriteReg(R7, 0x00000000)
T0904 000:872.571 - 0.051ms returns 0
T0904 000:872.606 JLINK_WriteReg(R8, 0x00000000)
T0904 000:872.640 - 0.050ms returns 0
T0904 000:872.675 JLINK_WriteReg(R9, 0x20000148)
T0904 000:872.709 - 0.050ms returns 0
T0904 000:872.744 JLINK_WriteReg(R10, 0x00000000)
T0904 000:872.778 - 0.050ms returns 0
T0904 000:872.813 JLINK_WriteReg(R11, 0x00000000)
T0904 000:872.846 - 0.050ms returns 0
T0904 000:872.881 JLINK_WriteReg(R12, 0x00000000)
T0904 000:873.041 - 0.177ms returns 0
T0904 000:873.077 JLINK_WriteReg(R13 (SP), 0x20004000)
T0904 000:873.114 - 0.053ms returns 0
T0904 000:873.149 JLINK_WriteReg(R14, 0x20000001)
T0904 000:873.183 - 0.050ms returns 0
T0904 000:873.218 JLINK_WriteReg(R15 (PC), 0x2000004A)
T0904 000:873.253 - 0.051ms returns 0
T0904 000:873.288 JLINK_WriteReg(XPSR, 0x01000000)
T0904 000:873.322 - 0.051ms returns 0
T0904 000:873.358 JLINK_WriteReg(MSP, 0x20004000)
T0904 000:873.392 - 0.055ms returns 0
T0904 000:873.436 JLINK_WriteReg(PSP, 0x20004000)
T0904 000:873.477 - 0.058ms returns 0
T0904 000:873.512 JLINK_WriteReg(CFBP, 0x00000000)
T0904 000:873.547 - 0.051ms returns 0
T0904 000:873.583 JLINK_SetBPEx(Addr = 0x20000000, Type = 0xFFFFFFF2)
T0904 000:873.620 - 0.053ms returns 0x00000001
T0904 000:873.655 JLINK_Go()
T0904 000:873.694   CPU_WriteMem(4 bytes @ 0xE0002000)
T0904 000:874.041   CPU_ReadMem(4 bytes @ 0xE0001000)
T0904 000:874.339   CPU_WriteMem(4 bytes @ 0xE0002008)
T0904 000:874.409   CPU_WriteMem(4 bytes @ 0xE000200C)
T0904 000:874.459   CPU_WriteMem(4 bytes @ 0xE0002010)
T0904 000:874.509   CPU_WriteMem(4 bytes @ 0xE0002014)
T0904 000:874.559   CPU_WriteMem(4 bytes @ 0xE0002018)
T0904 000:874.610   CPU_WriteMem(4 bytes @ 0xE000201C)
T0904 000:874.660   CPU_WriteMem(4 bytes @ 0xE0002020)
T0904 000:874.710   CPU_WriteMem(4 bytes @ 0xE0002024)
T0904 000:876.028   CPU_WriteMem(4 bytes @ 0xE0001004)
T0904 000:878.142 - 4.513ms
T0904 000:878.199 JLINK_IsHalted()
T0904 000:879.967 - 1.805ms returns TRUE
T0904 000:880.036 JLINK_ReadReg(R15 (PC))
T0904 000:880.087 - 0.074ms returns 0x20000000
T0904 000:880.137 JLINK_ClrBPEx(BPHandle = 0x00000001)
T0904 000:880.187 - 0.072ms returns 0x00
T0904 000:880.236 JLINK_ReadReg(R0)
T0904 000:880.284 - 0.071ms returns 0x00000000
T0904 000:881.209 JLINK_HasError()
T0904 000:881.262 JLINK_WriteReg(R0, 0x00000000)
T0904 000:881.300 - 0.055ms returns 0
T0904 000:881.335 JLINK_WriteReg(R1, 0x00002000)
T0904 000:881.370 - 0.051ms returns 0
T0904 000:881.405 JLINK_WriteReg(R2, 0x000000FF)
T0904 000:881.439 - 0.050ms returns 0
T0904 000:881.474 JLINK_WriteReg(R3, 0x00000000)
T0904 000:881.507 - 0.050ms returns 0
T0904 000:881.543 JLINK_WriteReg(R4, 0x00000000)
T0904 000:881.577 - 0.050ms returns 0
T0904 000:881.612 JLINK_WriteReg(R5, 0x00000000)
T0904 000:881.646 - 0.050ms returns 0
T0904 000:881.681 JLINK_WriteReg(R6, 0x00000000)
T0904 000:881.714 - 0.050ms returns 0
T0904 000:881.749 JLINK_WriteReg(R7, 0x00000000)
T0904 000:881.783 - 0.050ms returns 0
T0904 000:881.818 JLINK_WriteReg(R8, 0x00000000)
T0904 000:881.852 - 0.050ms returns 0
T0904 000:881.887 JLINK_WriteReg(R9, 0x20000148)
T0904 000:881.941 - 0.070ms returns 0
T0904 000:881.976 JLINK_WriteReg(R10, 0x00000000)
T0904 000:882.011 - 0.051ms returns 0
T0904 000:882.046 JLINK_WriteReg(R11, 0x00000000)
T0904 000:882.079 - 0.050ms returns 0
T0904 000:882.115 JLINK_WriteReg(R12, 0x00000000)
T0904 000:882.148 - 0.050ms returns 0
T0904 000:882.183 JLINK_WriteReg(R13 (SP), 0x20004000)
T0904 000:882.218 - 0.051ms returns 0
T0904 000:882.253 JLINK_WriteReg(R14, 0x20000001)
T0904 000:882.287 - 0.050ms returns 0
T0904 000:882.322 JLINK_WriteReg(R15 (PC), 0x20000020)
T0904 000:882.356 - 0.050ms returns 0
T0904 000:882.391 JLINK_WriteReg(XPSR, 0x01000000)
T0904 000:882.437 - 0.062ms returns 0
T0904 000:882.472 JLINK_WriteReg(MSP, 0x20004000)
T0904 000:882.513 - 0.057ms returns 0
T0904 000:882.548 JLINK_WriteReg(PSP, 0x20004000)
T0904 000:882.582 - 0.050ms returns 0
T0904 000:882.617 JLINK_WriteReg(CFBP, 0x00000000)
T0904 000:882.651 - 0.050ms returns 0
T0904 000:882.686 JLINK_SetBPEx(Addr = 0x20000000, Type = 0xFFFFFFF2)
T0904 000:882.721 - 0.051ms returns 0x00000002
T0904 000:882.757 JLINK_Go()
T0904 000:882.794   CPU_WriteMem(4 bytes @ 0xE0002000)
T0904 000:883.109   CPU_ReadMem(4 bytes @ 0xE0001000)
T0904 000:885.128 - 2.393ms
T0904 000:885.170 JLINK_IsHalted()
T0904 000:886.937 - 1.799ms returns TRUE
T0904 000:886.993 JLINK_ReadReg(R15 (PC))
T0904 000:887.044 - 0.074ms returns 0x20000000
T0904 000:887.093 JLINK_ClrBPEx(BPHandle = 0x00000002)
T0904 000:887.141 - 0.071ms returns 0x00
T0904 000:887.191 JLINK_ReadReg(R0)
T0904 000:887.238 - 0.071ms returns 0x00000001
T0904 000:887.288 JLINK_HasError()
T0904 000:887.338 JLINK_WriteReg(R0, 0x00000000)
T0904 000:887.386 - 0.071ms returns 0
T0904 000:887.436 JLINK_WriteReg(R1, 0x00002000)
T0904 000:887.483 - 0.071ms returns 0
T0904 000:887.532 JLINK_WriteReg(R2, 0x000000FF)
T0904 000:887.580 - 0.070ms returns 0
T0904 000:887.629 JLINK_WriteReg(R3, 0x00000000)
T0904 000:887.676 - 0.070ms returns 0
T0904 000:887.725 JLINK_WriteReg(R4, 0x00000000)
T0904 000:887.772 - 0.071ms returns 0
T0904 000:887.821 JLINK_WriteReg(R5, 0x00000000)
T0904 000:887.929 - 0.132ms returns 0
T0904 000:887.981 JLINK_WriteReg(R6, 0x00000000)
T0904 000:888.056 - 0.092ms returns 0
T0904 000:888.091 JLINK_WriteReg(R7, 0x00000000)
T0904 000:888.126 - 0.051ms returns 0
T0904 000:888.161 JLINK_WriteReg(R8, 0x00000000)
T0904 000:888.216 - 0.092ms returns 0
T0904 000:888.271 JLINK_WriteReg(R9, 0x20000148)
T0904 000:888.327 - 0.072ms returns 0
T0904 000:888.362 JLINK_WriteReg(R10, 0x00000000)
T0904 000:888.435 - 0.131ms returns 0
T0904 000:888.512 JLINK_WriteReg(R11, 0x00000000)
T0904 000:888.566 - 0.071ms returns 0
T0904 000:888.602 JLINK_WriteReg(R12, 0x00000000)
T0904 000:888.635 - 0.058ms returns 0
T0904 000:888.679 JLINK_WriteReg(R13 (SP), 0x20004000)
T0904 000:888.713 - 0.051ms returns 0
T0904 000:888.748 JLINK_WriteReg(R14, 0x20000001)
T0904 000:888.783 - 0.090ms returns 0
T0904 000:888.861 JLINK_WriteReg(R15 (PC), 0x200000AA)
T0904 000:888.927 - 0.085ms returns 0
T0904 000:888.968 JLINK_WriteReg(XPSR, 0x01000000)
T0904 000:889.009 - 0.058ms returns 0
T0904 000:889.044 JLINK_WriteReg(MSP, 0x20004000)
T0904 000:889.078 - 0.050ms returns 0
T0904 000:889.113 JLINK_WriteReg(PSP, 0x20004000)
T0904 000:889.148 - 0.051ms returns 0
T0904 000:889.183 JLINK_WriteReg(CFBP, 0x00000000)
T0904 000:889.217 - 0.050ms returns 0
T0904 000:889.252 JLINK_SetBPEx(Addr = 0x20000000, Type = 0xFFFFFFF2)
T0904 000:889.288 - 0.054ms returns 0x00000003
T0904 000:889.325 JLINK_Go()
T0904 000:889.363   CPU_WriteMem(4 bytes @ 0xE0002000)
T0904 000:889.696   CPU_ReadMem(4 bytes @ 0xE0001000)
T0904 000:891.823 - 2.547ms
T0904 000:891.903 JLINK_IsHalted()
T0904 000:892.166 - 0.281ms returns FALSE
T0904 000:892.211 JLINK_HasError()
T0904 000:909.280 JLINK_IsHalted()
T0904 000:911.151 - 1.918ms returns TRUE
T0904 000:911.229 JLINK_ReadReg(R15 (PC))
T0904 000:911.366 - 0.162ms returns 0x20000000
T0904 000:911.419 JLINK_ClrBPEx(BPHandle = 0x00000003)
T0904 000:911.467 - 0.072ms returns 0x00
T0904 000:911.517 JLINK_ReadReg(R0)
T0904 000:911.565 - 0.071ms returns 0x00000000
T0904 000:912.489 JLINK_HasError()
T0904 000:912.543 JLINK_WriteReg(R0, 0x00002000)
T0904 000:912.582 - 0.055ms returns 0
T0904 000:912.617 JLINK_WriteReg(R1, 0x00002000)
T0904 000:912.652 - 0.051ms returns 0
T0904 000:912.687 JLINK_WriteReg(R2, 0x000000FF)
T0904 000:912.721 - 0.050ms returns 0
T0904 000:912.756 JLINK_WriteReg(R3, 0x00000000)
T0904 000:912.790 - 0.063ms returns 0
T0904 000:912.841 JLINK_WriteReg(R4, 0x00000000)
T0904 000:912.886 - 0.063ms returns 0
T0904 000:912.924 JLINK_WriteReg(R5, 0x00000000)
T0904 000:912.958 - 0.050ms returns 0
T0904 000:912.993 JLINK_WriteReg(R6, 0x00000000)
T0904 000:913.033 - 0.059ms returns 0
T0904 000:913.070 JLINK_WriteReg(R7, 0x00000000)
T0904 000:913.104 - 0.050ms returns 0
T0904 000:913.139 JLINK_WriteReg(R8, 0x00000000)
T0904 000:913.173 - 0.050ms returns 0
T0904 000:913.207 JLINK_WriteReg(R9, 0x20000148)
T0904 000:913.276 - 0.086ms returns 0
T0904 000:913.313 JLINK_WriteReg(R10, 0x00000000)
T0904 000:913.347 - 0.051ms returns 0
T0904 000:913.382 JLINK_WriteReg(R11, 0x00000000)
T0904 000:913.416 - 0.050ms returns 0
T0904 000:913.451 JLINK_WriteReg(R12, 0x00000000)
T0904 000:913.485 - 0.050ms returns 0
T0904 000:913.524 JLINK_WriteReg(R13 (SP), 0x20004000)
T0904 000:913.559 - 0.051ms returns 0
T0904 000:913.622 JLINK_WriteReg(R14, 0x20000001)
T0904 000:913.657 - 0.051ms returns 0
T0904 000:913.692 JLINK_WriteReg(R15 (PC), 0x20000020)
T0904 000:913.726 - 0.051ms returns 0
T0904 000:913.762 JLINK_WriteReg(XPSR, 0x01000000)
T0904 000:913.796 - 0.051ms returns 0
T0904 000:913.832 JLINK_WriteReg(MSP, 0x20004000)
T0904 000:913.870 - 0.054ms returns 0
T0904 000:913.905 JLINK_WriteReg(PSP, 0x20004000)
T0904 000:913.939 - 0.051ms returns 0
T0904 000:913.974 JLINK_WriteReg(CFBP, 0x00000000)
T0904 000:914.008 - 0.050ms returns 0
T0904 000:914.044 JLINK_SetBPEx(Addr = 0x20000000, Type = 0xFFFFFFF2)
T0904 000:914.080 - 0.053ms returns 0x00000004
T0904 000:914.115 JLINK_Go()
T0904 000:914.163   CPU_WriteMem(4 bytes @ 0xE0002000)
T0904 000:914.487   CPU_ReadMem(4 bytes @ 0xE0001000)
T0904 000:916.605 - 2.522ms
T0904 000:916.660 JLINK_IsHalted()
T0904 000:918.394 - 1.766ms returns TRUE
T0904 000:918.460 JLINK_ReadReg(R15 (PC))
T0904 000:918.498 - 0.055ms returns 0x20000000
T0904 000:918.538 JLINK_ClrBPEx(BPHandle = 0x00000004)
T0904 000:918.573 - 0.052ms returns 0x00
T0904 000:918.621 JLINK_ReadReg(R0)
T0904 000:918.656 - 0.051ms returns 0x00000001
T0904 000:918.695 JLINK_HasError()
T0904 000:918.734 JLINK_WriteReg(R0, 0x00002000)
T0904 000:918.769 - 0.052ms returns 0
T0904 000:918.808 JLINK_WriteReg(R1, 0x00002000)
T0904 000:918.842 - 0.051ms returns 0
T0904 000:918.881 JLINK_WriteReg(R2, 0x000000FF)
T0904 000:918.915 - 0.051ms returns 0
T0904 000:918.953 JLINK_WriteReg(R3, 0x00000000)
T0904 000:918.987 - 0.051ms returns 0
T0904 000:919.026 JLINK_WriteReg(R4, 0x00000000)
T0904 000:919.060 - 0.051ms returns 0
T0904 000:919.098 JLINK_WriteReg(R5, 0x00000000)
T0904 000:919.133 - 0.051ms returns 0
T0904 000:919.171 JLINK_WriteReg(R6, 0x00000000)
T0904 000:919.206 - 0.051ms returns 0
T0904 000:919.244 JLINK_WriteReg(R7, 0x00000000)
T0904 000:919.279 - 0.051ms returns 0
T0904 000:919.317 JLINK_WriteReg(R8, 0x00000000)
T0904 000:919.351 - 0.050ms returns 0
T0904 000:919.390 JLINK_WriteReg(R9, 0x20000148)
T0904 000:919.424 - 0.050ms returns 0
T0904 000:919.463 JLINK_WriteReg(R10, 0x00000000)
T0904 000:919.497 - 0.051ms returns 0
T0904 000:919.536 JLINK_WriteReg(R11, 0x00000000)
T0904 000:919.570 - 0.051ms returns 0
T0904 000:919.609 JLINK_WriteReg(R12, 0x00000000)
T0904 000:919.643 - 0.050ms returns 0
T0904 000:919.682 JLINK_WriteReg(R13 (SP), 0x20004000)
T0904 000:919.718 - 0.052ms returns 0
T0904 000:919.757 JLINK_WriteReg(R14, 0x20000001)
T0904 000:919.791 - 0.051ms returns 0
T0904 000:919.830 JLINK_WriteReg(R15 (PC), 0x200000AA)
T0904 000:919.864 - 0.050ms returns 0
T0904 000:919.902 JLINK_WriteReg(XPSR, 0x01000000)
T0904 000:919.937 - 0.051ms returns 0
T0904 000:919.975 JLINK_WriteReg(MSP, 0x20004000)
T0904 000:920.009 - 0.050ms returns 0
T0904 000:920.048 JLINK_WriteReg(PSP, 0x20004000)
T0904 000:920.082 - 0.050ms returns 0
T0904 000:920.120 JLINK_WriteReg(CFBP, 0x00000000)
T0904 000:920.154 - 0.051ms returns 0
T0904 000:920.193 JLINK_SetBPEx(Addr = 0x20000000, Type = 0xFFFFFFF2)
T0904 000:920.229 - 0.052ms returns 0x00000005
T0904 000:920.268 JLINK_Go()
T0904 000:920.308   CPU_WriteMem(4 bytes @ 0xE0002000)
T0904 000:920.669   CPU_ReadMem(4 bytes @ 0xE0001000)
T0904 000:922.846 - 2.638ms
T0904 000:923.013 JLINK_IsHalted()
T0904 000:923.311 - 0.332ms returns FALSE
T0904 000:923.376 JLINK_HasError()
T0904 000:928.367 JLINK_IsHalted()
T0904 000:928.668 - 0.335ms returns FALSE
T0904 000:928.725 JLINK_HasError()
T0904 000:932.243 JLINK_IsHalted()
T0904 000:932.534 - 0.336ms returns FALSE
T0904 000:932.613 JLINK_HasError()
T0904 000:934.305 JLINK_IsHalted()
T0904 000:934.598 - 0.312ms returns FALSE
T0904 000:934.638 JLINK_HasError()
T0904 000:936.604 JLINK_IsHalted()
T0904 000:936.905 - 0.324ms returns FALSE
T0904 000:936.950 JLINK_HasError()
T0904 000:938.596 JLINK_IsHalted()
T0904 000:940.417 - 1.852ms returns TRUE
T0904 000:940.476 JLINK_ReadReg(R15 (PC))
T0904 000:940.527 - 0.075ms returns 0x20000000
T0904 000:940.578 JLINK_ClrBPEx(BPHandle = 0x00000005)
T0904 000:940.626 - 0.071ms returns 0x00
T0904 000:940.676 JLINK_ReadReg(R0)
T0904 000:940.724 - 0.071ms returns 0x00000000
T0904 000:941.644 JLINK_HasError()
T0904 000:941.698 JLINK_WriteReg(R0, 0x00004000)
T0904 000:941.737 - 0.056ms returns 0
T0904 000:941.772 JLINK_WriteReg(R1, 0x00002000)
T0904 000:941.807 - 0.052ms returns 0
T0904 000:941.843 JLINK_WriteReg(R2, 0x000000FF)
T0904 000:941.878 - 0.051ms returns 0
T0904 000:941.914 JLINK_WriteReg(R3, 0x00000000)
T0904 000:941.949 - 0.052ms returns 0
T0904 000:941.985 JLINK_WriteReg(R4, 0x00000000)
T0904 000:942.019 - 0.051ms returns 0
T0904 000:942.055 JLINK_WriteReg(R5, 0x00000000)
T0904 000:942.089 - 0.051ms returns 0
T0904 000:942.135 JLINK_WriteReg(R6, 0x00000000)
T0904 000:942.169 - 0.051ms returns 0
T0904 000:942.206 JLINK_WriteReg(R7, 0x00000000)
T0904 000:942.240 - 0.052ms returns 0
T0904 000:942.276 JLINK_WriteReg(R8, 0x00000000)
T0904 000:942.311 - 0.052ms returns 0
T0904 000:942.348 JLINK_WriteReg(R9, 0x20000148)
T0904 000:942.383 - 0.052ms returns 0
T0904 000:942.419 JLINK_WriteReg(R10, 0x00000000)
T0904 000:942.454 - 0.052ms returns 0
T0904 000:942.489 JLINK_WriteReg(R11, 0x00000000)
T0904 000:942.524 - 0.051ms returns 0
T0904 000:942.560 JLINK_WriteReg(R12, 0x00000000)
T0904 000:942.594 - 0.050ms returns 0
T0904 000:942.629 JLINK_WriteReg(R13 (SP), 0x20004000)
T0904 000:942.664 - 0.051ms returns 0
T0904 000:942.700 JLINK_WriteReg(R14, 0x20000001)
T0904 000:942.734 - 0.051ms returns 0
T0904 000:942.771 JLINK_WriteReg(R15 (PC), 0x20000020)
T0904 000:942.806 - 0.052ms returns 0
T0904 000:942.842 JLINK_WriteReg(XPSR, 0x01000000)
T0904 000:942.876 - 0.050ms returns 0
T0904 000:942.911 JLINK_WriteReg(MSP, 0x20004000)
T0904 000:942.946 - 0.052ms returns 0
T0904 000:942.982 JLINK_WriteReg(PSP, 0x20004000)
T0904 000:943.017 - 0.052ms returns 0
T0904 000:943.060 JLINK_WriteReg(CFBP, 0x00000000)
T0904 000:943.094 - 0.057ms returns 0
T0904 000:943.138 JLINK_SetBPEx(Addr = 0x20000000, Type = 0xFFFFFFF2)
T0904 000:943.175 - 0.054ms returns 0x00000006
T0904 000:943.211 JLINK_Go()
T0904 000:943.252   CPU_WriteMem(4 bytes @ 0xE0002000)
T0904 000:943.555   CPU_ReadMem(4 bytes @ 0xE0001000)
T0904 000:945.632 - 2.471ms
T0904 000:945.714 JLINK_IsHalted()
T0904 000:947.493 - 1.803ms returns TRUE
T0904 000:947.539 JLINK_ReadReg(R15 (PC))
T0904 000:947.575 - 0.053ms returns 0x20000000
T0904 000:947.610 JLINK_ClrBPEx(BPHandle = 0x00000006)
T0904 000:947.645 - 0.051ms returns 0x00
T0904 000:947.681 JLINK_ReadReg(R0)
T0904 000:947.715 - 0.051ms returns 0x00000001
T0904 000:947.751 JLINK_HasError()
T0904 000:947.786 JLINK_WriteReg(R0, 0x00004000)
T0904 000:947.821 - 0.052ms returns 0
T0904 000:947.857 JLINK_WriteReg(R1, 0x00002000)
T0904 000:947.891 - 0.051ms returns 0
T0904 000:947.926 JLINK_WriteReg(R2, 0x000000FF)
T0904 000:947.960 - 0.050ms returns 0
T0904 000:947.995 JLINK_WriteReg(R3, 0x00000000)
T0904 000:948.028 - 0.050ms returns 0
T0904 000:948.063 JLINK_WriteReg(R4, 0x00000000)
T0904 000:948.097 - 0.051ms returns 0
T0904 000:948.133 JLINK_WriteReg(R5, 0x00000000)
T0904 000:948.174 - 0.058ms returns 0
T0904 000:948.210 JLINK_WriteReg(R6, 0x00000000)
T0904 000:948.244 - 0.052ms returns 0
T0904 000:948.281 JLINK_WriteReg(R7, 0x00000000)
T0904 000:948.316 - 0.052ms returns 0
T0904 000:948.352 JLINK_WriteReg(R8, 0x00000000)
T0904 000:948.391 - 0.058ms returns 0
T0904 000:948.428 JLINK_WriteReg(R9, 0x20000148)
T0904 000:948.464 - 0.052ms returns 0
T0904 000:948.499 JLINK_WriteReg(R10, 0x00000000)
T0904 000:948.541 - 0.059ms returns 0
T0904 000:948.577 JLINK_WriteReg(R11, 0x00000000)
T0904 000:948.611 - 0.051ms returns 0
T0904 000:948.647 JLINK_WriteReg(R12, 0x00000000)
T0904 000:948.682 - 0.052ms returns 0
T0904 000:948.718 JLINK_WriteReg(R13 (SP), 0x20004000)
T0904 000:948.753 - 0.052ms returns 0
T0904 000:948.789 JLINK_WriteReg(R14, 0x20000001)
T0904 000:948.823 - 0.051ms returns 0
T0904 000:948.866 JLINK_WriteReg(R15 (PC), 0x200000AA)
T0904 000:948.901 - 0.051ms returns 0
T0904 000:948.940 JLINK_WriteReg(XPSR, 0x01000000)
T0904 000:948.975 - 0.051ms returns 0
T0904 000:949.013 JLINK_WriteReg(MSP, 0x20004000)
T0904 000:949.048 - 0.051ms returns 0
T0904 000:949.087 JLINK_WriteReg(PSP, 0x20004000)
T0904 000:949.122 - 0.052ms returns 0
T0904 000:949.163 JLINK_WriteReg(CFBP, 0x00000000)
T0904 000:949.198 - 0.058ms returns 0
T0904 000:949.245 JLINK_SetBPEx(Addr = 0x20000000, Type = 0xFFFFFFF2)
T0904 000:949.281 - 0.053ms returns 0x00000007
T0904 000:949.320 JLINK_Go()
T0904 000:949.358   CPU_WriteMem(4 bytes @ 0xE0002000)
T0904 000:949.668   CPU_ReadMem(4 bytes @ 0xE0001000)
T0904 000:951.725 - 2.431ms
T0904 000:951.782 JLINK_IsHalted()
T0904 000:952.010 - 0.246ms returns FALSE
T0904 000:952.053 JLINK_HasError()
T0904 000:955.493 JLINK_IsHalted()
T0904 000:955.835 - 0.390ms returns FALSE
T0904 000:955.923 JLINK_HasError()
T0904 000:958.759 JLINK_IsHalted()
T0904 000:959.094 - 0.366ms returns FALSE
T0904 000:959.147 JLINK_HasError()
T0904 000:960.761 JLINK_IsHalted()
T0904 000:961.060 - 0.325ms returns FALSE
T0904 000:961.116 JLINK_HasError()
T0904 000:963.325 JLINK_IsHalted()
T0904 000:963.597 - 0.291ms returns FALSE
T0904 000:963.638 JLINK_HasError()
T0904 000:965.457 JLINK_IsHalted()
T0904 000:965.771 - 0.338ms returns FALSE
T0904 000:965.817 JLINK_HasError()
T0904 000:967.461 JLINK_IsHalted()
T0904 000:969.290 - 1.862ms returns TRUE
T0904 000:969.345 JLINK_ReadReg(R15 (PC))
T0904 000:969.392 - 0.064ms returns 0x20000000
T0904 000:969.429 JLINK_ClrBPEx(BPHandle = 0x00000007)
T0904 000:969.464 - 0.052ms returns 0x00
T0904 000:969.499 JLINK_ReadReg(R0)
T0904 000:969.533 - 0.050ms returns 0x00000000
T0904 000:970.473 JLINK_HasError()
T0904 000:970.530 JLINK_WriteReg(R0, 0x00006000)
T0904 000:970.586 - 0.073ms returns 0
T0904 000:970.624 JLINK_WriteReg(R1, 0x00002000)
T0904 000:970.659 - 0.052ms returns 0
T0904 000:970.694 JLINK_WriteReg(R2, 0x000000FF)
T0904 000:970.728 - 0.050ms returns 0
T0904 000:970.764 JLINK_WriteReg(R3, 0x00000000)
T0904 000:970.798 - 0.051ms returns 0
T0904 000:970.833 JLINK_WriteReg(R4, 0x00000000)
T0904 000:970.867 - 0.050ms returns 0
T0904 000:970.902 JLINK_WriteReg(R5, 0x00000000)
T0904 000:970.936 - 0.050ms returns 0
T0904 000:970.971 JLINK_WriteReg(R6, 0x00000000)
T0904 000:971.005 - 0.050ms returns 0
T0904 000:971.041 JLINK_WriteReg(R7, 0x00000000)
T0904 000:971.074 - 0.051ms returns 0
T0904 000:971.110 JLINK_WriteReg(R8, 0x00000000)
T0904 000:971.144 - 0.051ms returns 0
T0904 000:971.179 JLINK_WriteReg(R9, 0x20000148)
T0904 000:971.213 - 0.050ms returns 0
T0904 000:971.248 JLINK_WriteReg(R10, 0x00000000)
T0904 000:971.282 - 0.050ms returns 0
T0904 000:971.317 JLINK_WriteReg(R11, 0x00000000)
T0904 000:971.351 - 0.050ms returns 0
T0904 000:971.387 JLINK_WriteReg(R12, 0x00000000)
T0904 000:971.421 - 0.050ms returns 0
T0904 000:971.456 JLINK_WriteReg(R13 (SP), 0x20004000)
T0904 000:971.491 - 0.052ms returns 0
T0904 000:971.526 JLINK_WriteReg(R14, 0x20000001)
T0904 000:971.560 - 0.050ms returns 0
T0904 000:971.595 JLINK_WriteReg(R15 (PC), 0x20000020)
T0904 000:971.630 - 0.051ms returns 0
T0904 000:971.665 JLINK_WriteReg(XPSR, 0x01000000)
T0904 000:971.699 - 0.051ms returns 0
T0904 000:971.734 JLINK_WriteReg(MSP, 0x20004000)
T0904 000:971.768 - 0.050ms returns 0
T0904 000:971.803 JLINK_WriteReg(PSP, 0x20004000)
T0904 000:971.838 - 0.144ms returns 0
T0904 000:971.979 JLINK_WriteReg(CFBP, 0x00000000)
T0904 000:972.029 - 0.092ms returns 0
T0904 000:972.096 JLINK_SetBPEx(Addr = 0x20000000, Type = 0xFFFFFFF2)
T0904 000:972.134 - 0.059ms returns 0x00000008
T0904 000:972.183 JLINK_Go()
T0904 000:972.238   CPU_WriteMem(4 bytes @ 0xE0002000)
T0904 000:972.541   CPU_ReadMem(4 bytes @ 0xE0001000)
T0904 000:974.642 - 2.492ms
T0904 000:974.699 JLINK_IsHalted()
T0904 000:976.569 - 1.904ms returns TRUE
T0904 000:976.626 JLINK_ReadReg(R15 (PC))
T0904 000:976.663 - 0.054ms returns 0x20000000
T0904 000:976.699 JLINK_ClrBPEx(BPHandle = 0x00000008)
T0904 000:976.734 - 0.052ms returns 0x00
T0904 000:976.775 JLINK_ReadReg(R0)
T0904 000:976.817 - 0.059ms returns 0x00000001
T0904 000:976.854 JLINK_HasError()
T0904 000:976.908 JLINK_WriteReg(R0, 0x00006000)
T0904 000:976.944 - 0.051ms returns 0
T0904 000:976.988 JLINK_WriteReg(R1, 0x00002000)
T0904 000:977.022 - 0.051ms returns 0
T0904 000:977.062 JLINK_WriteReg(R2, 0x000000FF)
T0904 000:977.096 - 0.050ms returns 0
T0904 000:977.135 JLINK_WriteReg(R3, 0x00000000)
T0904 000:977.169 - 0.051ms returns 0
T0904 000:977.209 JLINK_WriteReg(R4, 0x00000000)
T0904 000:977.243 - 0.051ms returns 0
T0904 000:977.283 JLINK_WriteReg(R5, 0x00000000)
T0904 000:977.317 - 0.051ms returns 0
T0904 000:977.357 JLINK_WriteReg(R6, 0x00000000)
T0904 000:977.391 - 0.050ms returns 0
T0904 000:977.430 JLINK_WriteReg(R7, 0x00000000)
T0904 000:977.464 - 0.050ms returns 0
T0904 000:977.502 JLINK_WriteReg(R8, 0x00000000)
T0904 000:977.546 - 0.060ms returns 0
T0904 000:977.585 JLINK_WriteReg(R9, 0x20000148)
T0904 000:977.627 - 0.063ms returns 0
T0904 000:977.677 JLINK_WriteReg(R10, 0x00000000)
T0904 000:977.715 - 0.055ms returns 0
T0904 000:977.754 JLINK_WriteReg(R11, 0x00000000)
T0904 000:977.792 - 0.063ms returns 0
T0904 000:977.845 JLINK_WriteReg(R12, 0x00000000)
T0904 000:977.895 - 0.066ms returns 0
T0904 000:977.935 JLINK_WriteReg(R13 (SP), 0x20004000)
T0904 000:977.970 - 0.051ms returns 0
T0904 000:978.009 JLINK_WriteReg(R14, 0x20000001)
T0904 000:978.043 - 0.051ms returns 0
T0904 000:978.082 JLINK_WriteReg(R15 (PC), 0x200000AA)
T0904 000:978.116 - 0.056ms returns 0
T0904 000:978.171 JLINK_WriteReg(XPSR, 0x01000000)
T0904 000:978.214 - 0.060ms returns 0
T0904 000:978.254 JLINK_WriteReg(MSP, 0x20004000)
T0904 000:978.298 - 0.061ms returns 0
T0904 000:978.337 JLINK_WriteReg(PSP, 0x20004000)
T0904 000:978.375 - 0.060ms returns 0
T0904 000:978.428 JLINK_WriteReg(CFBP, 0x00000000)
T0904 000:978.473 - 0.065ms returns 0
T0904 000:978.520 JLINK_SetBPEx(Addr = 0x20000000, Type = 0xFFFFFFF2)
T0904 000:978.556 - 0.056ms returns 0x00000009
T0904 000:978.605 JLINK_Go()
T0904 000:978.646   CPU_WriteMem(4 bytes @ 0xE0002000)
T0904 000:978.970   CPU_ReadMem(4 bytes @ 0xE0001000)
T0904 000:981.177 - 2.606ms
T0904 000:981.246 JLINK_IsHalted()
T0904 000:981.504 - 0.292ms returns FALSE
T0904 000:981.570 JLINK_HasError()
T0904 000:990.965 JLINK_IsHalted()
T0904 000:991.309 - 0.384ms returns FALSE
T0904 000:991.375 JLINK_HasError()
T0904 000:993.410 JLINK_IsHalted()
T0904 000:993.709 - 0.325ms returns FALSE
T0904 000:993.765 JLINK_HasError()
T0904 000:996.464 JLINK_IsHalted()
T0904 000:998.252 - 1.822ms returns TRUE
T0904 000:998.309 JLINK_ReadReg(R15 (PC))
T0904 000:998.348 - 0.056ms returns 0x20000000
T0904 000:998.385 JLINK_ClrBPEx(BPHandle = 0x00000009)
T0904 000:998.419 - 0.051ms returns 0x00
T0904 000:998.455 JLINK_ReadReg(R0)
T0904 000:998.489 - 0.055ms returns 0x00000000
T0904 000:999.048 JLINK_HasError()
T0904 000:999.101 JLINK_WriteReg(R0, 0x00000001)
T0904 000:999.139 - 0.055ms returns 0
T0904 000:999.174 JLINK_WriteReg(R1, 0x00002000)
T0904 000:999.209 - 0.051ms returns 0
T0904 000:999.244 JLINK_WriteReg(R2, 0x000000FF)
T0904 000:999.278 - 0.050ms returns 0
T0904 000:999.313 JLINK_WriteReg(R3, 0x00000000)
T0904 000:999.348 - 0.051ms returns 0
T0904 000:999.383 JLINK_WriteReg(R4, 0x00000000)
T0904 000:999.417 - 0.050ms returns 0
T0904 000:999.452 JLINK_WriteReg(R5, 0x00000000)
T0904 000:999.493 - 0.060ms returns 0
T0904 000:999.530 JLINK_WriteReg(R6, 0x00000000)
T0904 000:999.565 - 0.051ms returns 0
T0904 000:999.600 JLINK_WriteReg(R7, 0x00000000)
T0904 000:999.633 - 0.050ms returns 0
T0904 000:999.668 JLINK_WriteReg(R8, 0x00000000)
T0904 000:999.704 - 0.057ms returns 0
T0904 000:999.748 JLINK_WriteReg(R9, 0x20000148)
T0904 000:999.790 - 0.064ms returns 0
T0904 000:999.836 JLINK_WriteReg(R10, 0x00000000)
T0904 000:999.870 - 0.051ms returns 0
T0904 000:999.905 JLINK_WriteReg(R11, 0x00000000)
T0904 000:999.939 - 0.050ms returns 0
T0904 000:999.974 JLINK_WriteReg(R12, 0x00000000)
T0904 001:000.008 - 0.050ms returns 0
T0904 001:000.043 JLINK_WriteReg(R13 (SP), 0x20004000)
T0904 001:000.078 - 0.051ms returns 0
T0904 001:000.114 JLINK_WriteReg(R14, 0x20000001)
T0904 001:000.150 - 0.054ms returns 0
T0904 001:000.187 JLINK_WriteReg(R15 (PC), 0x2000007E)
T0904 001:000.222 - 0.052ms returns 0
T0904 001:000.259 JLINK_WriteReg(XPSR, 0x01000000)
T0904 001:000.295 - 0.053ms returns 0
T0904 001:000.333 JLINK_WriteReg(MSP, 0x20004000)
T0904 001:000.367 - 0.050ms returns 0
T0904 001:000.402 JLINK_WriteReg(PSP, 0x20004000)
T0904 001:000.435 - 0.050ms returns 0
T0904 001:000.470 JLINK_WriteReg(CFBP, 0x00000000)
T0904 001:000.504 - 0.050ms returns 0
T0904 001:000.540 JLINK_SetBPEx(Addr = 0x20000000, Type = 0xFFFFFFF2)
T0904 001:000.576 - 0.052ms returns 0x0000000A
T0904 001:000.611 JLINK_Go()
T0904 001:000.651   CPU_WriteMem(4 bytes @ 0xE0002000)
T0904 001:000.961   CPU_ReadMem(4 bytes @ 0xE0001000)
T0904 001:003.046 - 2.468ms
T0904 001:003.102 JLINK_IsHalted()
T0904 001:004.870 - 1.801ms returns TRUE
T0904 001:004.926 JLINK_ReadReg(R15 (PC))
T0904 001:004.963 - 0.054ms returns 0x20000000
T0904 001:005.000 JLINK_ClrBPEx(BPHandle = 0x0000000A)
T0904 001:005.042 - 0.061ms returns 0x00
T0904 001:005.080 JLINK_ReadReg(R0)
T0904 001:005.121 - 0.058ms returns 0x00000000
T0904 001:068.517 JLINK_WriteMem(0x20000000, 0x14C Bytes, ...)
T0904 001:068.573   Data:  00 BE 0A E0 0D 78 2D 06 68 40 08 24 40 00 00 D3 ...
T0904 001:068.645   CPU_WriteMem(332 bytes @ 0x20000000)
T0904 001:070.409 - 1.931ms returns 0x14C
T0904 001:070.523 JLINK_HasError()
T0904 001:070.578 JLINK_WriteReg(R0, 0x00000000)
T0904 001:070.631 - 0.076ms returns 0
T0904 001:070.681 JLINK_WriteReg(R1, 0x00B71B00)
T0904 001:070.731 - 0.073ms returns 0
T0904 001:070.780 JLINK_WriteReg(R2, 0x00000002)
T0904 001:070.828 - 0.071ms returns 0
T0904 001:070.877 JLINK_WriteReg(R3, 0x00000000)
T0904 001:070.925 - 0.071ms returns 0
T0904 001:070.974 JLINK_WriteReg(R4, 0x00000000)
T0904 001:071.022 - 0.071ms returns 0
T0904 001:071.071 JLINK_WriteReg(R5, 0x00000000)
T0904 001:071.119 - 0.071ms returns 0
T0904 001:071.168 JLINK_WriteReg(R6, 0x00000000)
T0904 001:071.215 - 0.071ms returns 0
T0904 001:071.265 JLINK_WriteReg(R7, 0x00000000)
T0904 001:071.312 - 0.071ms returns 0
T0904 001:071.359 JLINK_WriteReg(R8, 0x00000000)
T0904 001:071.393 - 0.050ms returns 0
T0904 001:071.428 JLINK_WriteReg(R9, 0x20000148)
T0904 001:071.463 - 0.051ms returns 0
T0904 001:071.498 JLINK_WriteReg(R10, 0x00000000)
T0904 001:071.532 - 0.050ms returns 0
T0904 001:071.567 JLINK_WriteReg(R11, 0x00000000)
T0904 001:071.601 - 0.051ms returns 0
T0904 001:071.637 JLINK_WriteReg(R12, 0x00000000)
T0904 001:071.671 - 0.051ms returns 0
T0904 001:071.706 JLINK_WriteReg(R13 (SP), 0x20004000)
T0904 001:071.742 - 0.052ms returns 0
T0904 001:071.777 JLINK_WriteReg(R14, 0x20000001)
T0904 001:071.812 - 0.051ms returns 0
T0904 001:071.847 JLINK_WriteReg(R15 (PC), 0x2000004A)
T0904 001:071.882 - 0.051ms returns 0
T0904 001:071.917 JLINK_WriteReg(XPSR, 0x01000000)
T0904 001:071.951 - 0.051ms returns 0
T0904 001:071.987 JLINK_WriteReg(MSP, 0x20004000)
T0904 001:072.031 - 0.061ms returns 0
T0904 001:072.066 JLINK_WriteReg(PSP, 0x20004000)
T0904 001:072.101 - 0.051ms returns 0
T0904 001:072.144 JLINK_WriteReg(CFBP, 0x00000000)
T0904 001:072.178 - 0.051ms returns 0
T0904 001:072.214 JLINK_SetBPEx(Addr = 0x20000000, Type = 0xFFFFFFF2)
T0904 001:072.256 - 0.061ms returns 0x0000000B
T0904 001:072.294 JLINK_Go()
T0904 001:072.333   CPU_WriteMem(4 bytes @ 0xE0002000)
T0904 001:072.663   CPU_ReadMem(4 bytes @ 0xE0001000)
T0904 001:074.799 - 2.543ms
T0904 001:074.863 JLINK_IsHalted()
T0904 001:076.646 - 1.813ms returns TRUE
T0904 001:076.702 JLINK_ReadReg(R15 (PC))
T0904 001:076.742 - 0.056ms returns 0x20000000
T0904 001:076.778 JLINK_ClrBPEx(BPHandle = 0x0000000B)
T0904 001:076.814 - 0.052ms returns 0x00
T0904 001:076.849 JLINK_ReadReg(R0)
T0904 001:076.884 - 0.051ms returns 0x00000000
T0904 001:077.379 JLINK_WriteMem(0x2000014C, 0x2B4 Bytes, ...)
T0904 001:077.428   Data:  90 2A 00 20 F5 00 00 00 A9 27 00 00 FF 00 00 00 ...
T0904 001:077.491   CPU_WriteMem(692 bytes @ 0x2000014C)
T0904 001:080.702 - 3.371ms returns 0x2B4
T0904 001:080.785 JLINK_WriteMem(0x20000400, 0x400 Bytes, ...)
T0904 001:080.835   Data:  F7 D1 51 B1 91 42 02 D1 4F F0 00 41 05 E0 02 D2 ...
T0904 001:080.918   CPU_WriteMem(1024 bytes @ 0x20000400)
T0904 001:085.484 - 4.759ms returns 0x400
T0904 001:085.594 JLINK_WriteMem(0x20000800, 0x400 Bytes, ...)
T0904 001:085.630   Data:  06 D2 01 22 00 23 06 E0 00 22 4F F0 00 43 02 E0 ...
T0904 001:085.691   CPU_WriteMem(1024 bytes @ 0x20000800)
T0904 001:090.181 - 4.625ms returns 0x400
T0904 001:090.254 JLINK_WriteMem(0x20000C00, 0x400 Bytes, ...)
T0904 001:090.289   Data:  00 68 C0 F8 00 31 C0 F8 04 21 10 BD 44 00 00 20 ...
T0904 001:090.355   CPU_WriteMem(1024 bytes @ 0x20000C00)
T0904 001:094.825 - 4.611ms returns 0x400
T0904 001:094.907 JLINK_WriteMem(0x20001000, 0x400 Bytes, ...)
T0904 001:094.956   Data:  06 23 43 75 05 23 83 75 04 23 C3 75 01 76 42 76 ...
T0904 001:095.037   CPU_WriteMem(1024 bytes @ 0x20001000)
T0904 001:099.522 - 4.656ms returns 0x400
T0904 001:099.604 JLINK_WriteMem(0x20001400, 0x400 Bytes, ...)
T0904 001:099.653   Data:  C0 02 28 42 FB D0 06 98 01 21 FF F7 27 FF 04 F5 ...
T0904 001:099.735   CPU_WriteMem(1024 bytes @ 0x20001400)
T0904 001:104.267 - 4.739ms returns 0x400
T0904 001:104.387 JLINK_WriteMem(0x20001800, 0x400 Bytes, ...)
T0904 001:104.430   Data:  97 A9 2A 46 02 F0 48 FA E9 48 01 A9 2A 46 02 F0 ...
T0904 001:104.496   CPU_WriteMem(1024 bytes @ 0x20001800)
T0904 001:108.965 - 4.612ms returns 0x400
T0904 001:109.032 JLINK_WriteMem(0x20001C00, 0x400 Bytes, ...)
T0904 001:109.067   Data:  19 68 D0 E9 00 42 01 F5 08 71 0C 60 4A 60 D0 E9 ...
T0904 001:109.127   CPU_WriteMem(1024 bytes @ 0x20001C00)
T0904 001:113.592 - 4.595ms returns 0x400
T0904 001:113.660 JLINK_WriteMem(0x20002000, 0x14C Bytes, ...)
T0904 001:113.696   Data:  84 11 D0 F8 68 22 D0 F8 6C 12 42 F0 04 02 C0 F8 ...
T0904 001:113.755   CPU_WriteMem(332 bytes @ 0x20002000)
T0904 001:115.514 - 1.878ms returns 0x14C
T0904 001:115.569 JLINK_HasError()
T0904 001:115.611 JLINK_WriteReg(R0, 0x00000000)
T0904 001:115.650 - 0.056ms returns 0
T0904 001:115.690 JLINK_WriteReg(R1, 0x00002000)
T0904 001:115.724 - 0.051ms returns 0
T0904 001:115.763 JLINK_WriteReg(R2, 0x2000014C)
T0904 001:115.797 - 0.051ms returns 0
T0904 001:115.836 JLINK_WriteReg(R3, 0x00000000)
T0904 001:115.870 - 0.051ms returns 0
T0904 001:115.909 JLINK_WriteReg(R4, 0x00000000)
T0904 001:115.943 - 0.051ms returns 0
T0904 001:115.982 JLINK_WriteReg(R5, 0x00000000)
T0904 001:116.017 - 0.051ms returns 0
T0904 001:116.055 JLINK_WriteReg(R6, 0x00000000)
T0904 001:116.090 - 0.051ms returns 0
T0904 001:116.128 JLINK_WriteReg(R7, 0x00000000)
T0904 001:116.162 - 0.051ms returns 0
T0904 001:116.200 JLINK_WriteReg(R8, 0x00000000)
T0904 001:116.235 - 0.051ms returns 0
T0904 001:116.273 JLINK_WriteReg(R9, 0x20000148)
T0904 001:116.307 - 0.050ms returns 0
T0904 001:116.345 JLINK_WriteReg(R10, 0x00000000)
T0904 001:116.379 - 0.051ms returns 0
T0904 001:116.418 JLINK_WriteReg(R11, 0x00000000)
T0904 001:116.452 - 0.050ms returns 0
T0904 001:116.498 JLINK_WriteReg(R12, 0x00000000)
T0904 001:116.533 - 0.051ms returns 0
T0904 001:116.572 JLINK_WriteReg(R13 (SP), 0x20004000)
T0904 001:116.608 - 0.053ms returns 0
T0904 001:116.654 JLINK_WriteReg(R14, 0x20000001)
T0904 001:116.691 - 0.054ms returns 0
T0904 001:116.730 JLINK_WriteReg(R15 (PC), 0x200000D2)
T0904 001:116.765 - 0.051ms returns 0
T0904 001:116.803 JLINK_WriteReg(XPSR, 0x01000000)
T0904 001:116.837 - 0.051ms returns 0
T0904 001:116.876 JLINK_WriteReg(MSP, 0x20004000)
T0904 001:116.910 - 0.051ms returns 0
T0904 001:116.949 JLINK_WriteReg(PSP, 0x20004000)
T0904 001:116.983 - 0.051ms returns 0
T0904 001:117.022 JLINK_WriteReg(CFBP, 0x00000000)
T0904 001:117.056 - 0.051ms returns 0
T0904 001:117.094 JLINK_SetBPEx(Addr = 0x20000000, Type = 0xFFFFFFF2)
T0904 001:117.130 - 0.053ms returns 0x0000000C
T0904 001:117.169 JLINK_Go()
T0904 001:117.207   CPU_WriteMem(4 bytes @ 0xE0002000)
T0904 001:117.522   CPU_ReadMem(4 bytes @ 0xE0001000)
T0904 001:119.638 - 2.501ms
T0904 001:119.701 JLINK_IsHalted()
T0904 001:119.951 - 0.283ms returns FALSE
T0904 001:120.016 JLINK_HasError()
T0904 001:127.178 JLINK_IsHalted()
T0904 001:127.491 - 0.336ms returns FALSE
T0904 001:127.535 JLINK_HasError()
T0904 001:129.183 JLINK_IsHalted()
T0904 001:129.504 - 0.355ms returns FALSE
T0904 001:129.561 JLINK_HasError()
T0904 001:132.144 JLINK_IsHalted()
T0904 001:132.485 - 0.374ms returns FALSE
T0904 001:132.542 JLINK_HasError()
T0904 001:135.507 JLINK_IsHalted()
T0904 001:135.819 - 0.341ms returns FALSE
T0904 001:135.878 JLINK_HasError()
T0904 001:138.900 JLINK_IsHalted()
T0904 001:139.186 - 0.327ms returns FALSE
T0904 001:139.254 JLINK_HasError()
T0904 001:141.081 JLINK_IsHalted()
T0904 001:141.385 - 0.338ms returns FALSE
T0904 001:141.442 JLINK_HasError()
T0904 001:143.189 JLINK_IsHalted()
T0904 001:143.474 - 0.318ms returns FALSE
T0904 001:143.531 JLINK_HasError()
T0904 001:145.204 JLINK_IsHalted()
T0904 001:145.502 - 0.326ms returns FALSE
T0904 001:145.570 JLINK_HasError()
T0904 001:148.329 JLINK_IsHalted()
T0904 001:148.622 - 0.318ms returns FALSE
T0904 001:148.669 JLINK_HasError()
T0904 001:149.826 JLINK_IsHalted()
T0904 001:150.100 - 0.298ms returns FALSE
T0904 001:150.146 JLINK_HasError()
T0904 001:151.976 JLINK_IsHalted()
T0904 001:152.321 - 0.370ms returns FALSE
T0904 001:152.375 JLINK_HasError()
T0904 001:157.254 JLINK_IsHalted()
T0904 001:157.577 - 0.369ms returns FALSE
T0904 001:157.655 JLINK_HasError()
T0904 001:159.460 JLINK_IsHalted()
T0904 001:159.728 - 0.296ms returns FALSE
T0904 001:159.784 JLINK_HasError()
T0904 001:161.973 JLINK_IsHalted()
T0904 001:162.248 - 0.295ms returns FALSE
T0904 001:162.289 JLINK_HasError()
T0904 001:163.973 JLINK_IsHalted()
T0904 001:164.257 - 0.326ms returns FALSE
T0904 001:164.331 JLINK_HasError()
T0904 001:165.982 JLINK_IsHalted()
T0904 001:166.283 - 0.325ms returns FALSE
T0904 001:166.333 JLINK_HasError()
T0904 001:168.153 JLINK_IsHalted()
T0904 001:168.494 - 0.386ms returns FALSE
T0904 001:168.567 JLINK_HasError()
T0904 001:170.700 JLINK_IsHalted()
T0904 001:171.075 - 0.418ms returns FALSE
T0904 001:171.151 JLINK_HasError()
T0904 001:173.545 JLINK_IsHalted()
T0904 001:173.847 - 0.338ms returns FALSE
T0904 001:173.906 JLINK_HasError()
T0904 001:176.182 JLINK_IsHalted()
T0904 001:176.474 - 0.311ms returns FALSE
T0904 001:176.513 JLINK_HasError()
T0904 001:178.690 JLINK_IsHalted()
T0904 001:178.959 - 0.302ms returns FALSE
T0904 001:179.025 JLINK_HasError()
T0904 001:180.193 JLINK_IsHalted()
T0904 001:180.535 - 0.381ms returns FALSE
T0904 001:180.607 JLINK_HasError()
T0904 001:182.174 JLINK_IsHalted()
T0904 001:182.473 - 0.321ms returns FALSE
T0904 001:182.517 JLINK_HasError()
T0904 001:183.869 JLINK_IsHalted()
T0904 001:184.177 - 9.845ms returns FALSE
T0904 001:193.758 JLINK_HasError()
T0904 001:197.541 JLINK_IsHalted()
T0904 001:197.860 - 0.338ms returns FALSE
T0904 001:197.902 JLINK_HasError()
T0904 001:202.080 JLINK_IsHalted()
T0904 001:202.391 - 0.331ms returns FALSE
T0904 001:202.432 JLINK_HasError()
T0904 001:204.153 JLINK_IsHalted()
T0904 001:204.494 - 0.375ms returns FALSE
T0904 001:204.552 JLINK_HasError()
T0904 001:208.761 JLINK_IsHalted()
T0904 001:209.068 - 0.350ms returns FALSE
T0904 001:209.140 JLINK_HasError()
T0904 001:210.276 JLINK_IsHalted()
T0904 001:210.560 - 0.303ms returns FALSE
T0904 001:210.601 JLINK_HasError()
T0904 001:212.291 JLINK_IsHalted()
T0904 001:212.597 - 0.338ms returns FALSE
T0904 001:212.653 JLINK_HasError()
T0904 001:213.891 JLINK_IsHalted()
T0904 001:215.829 - 1.979ms returns TRUE
T0904 001:215.899 JLINK_ReadReg(R15 (PC))
T0904 001:215.949 - 0.071ms returns 0x20000000
T0904 001:215.995 JLINK_ClrBPEx(BPHandle = 0x0000000C)
T0904 001:216.041 - 0.065ms returns 0x00
T0904 001:216.085 JLINK_ReadReg(R0)
T0904 001:216.128 - 0.065ms returns 0x00000000
T0904 001:217.303 JLINK_WriteMem(0x2000014C, 0x2B4 Bytes, ...)
T0904 001:217.366   Data:  DF F8 D8 C1 E8 68 DC F8 1C 20 03 6C 53 43 01 EB ...
T0904 001:217.454   CPU_WriteMem(692 bytes @ 0x2000014C)
T0904 001:220.683 - 3.427ms returns 0x2B4
T0904 001:220.763 JLINK_WriteMem(0x20000400, 0x400 Bytes, ...)
T0904 001:220.813   Data:  18 6C 20 EA 01 40 18 64 00 20 30 BD 20 46 30 BD ...
T0904 001:220.896   CPU_WriteMem(1024 bytes @ 0x20000400)
T0904 001:225.386 - 4.657ms returns 0x400
T0904 001:225.459 JLINK_WriteMem(0x20000800, 0x400 Bytes, ...)
T0904 001:225.495   Data:  34 4B 10 33 18 68 20 F0 01 00 18 60 31 48 32 49 ...
T0904 001:225.554   CPU_WriteMem(1024 bytes @ 0x20000800)
T0904 001:230.021 - 4.595ms returns 0x400
T0904 001:230.086 JLINK_WriteMem(0x20000C00, 0x400 Bytes, ...)
T0904 001:230.121   Data:  54 68 56 3D 25 30 32 64 0D 0A 00 00 64 70 6B 54 ...
T0904 001:230.179   CPU_WriteMem(1024 bytes @ 0x20000C00)
T0904 001:234.684 - 4.641ms returns 0x400
T0904 001:234.768 JLINK_WriteMem(0x20001000, 0x400 Bytes, ...)
T0904 001:234.817   Data:  8B FA 00 28 85 D1 B1 69 E1 61 7D A0 01 F0 28 F8 ...
T0904 001:234.896   CPU_WriteMem(1024 bytes @ 0x20001000)
T0904 001:239.403 - 4.674ms returns 0x400
